
T2048 2079:509 SEGGER J-Link V6.32i Log File (0009ms, 0030ms total)
T2048 2079:509 DLL Compiled: Jul 24 2018 15:19:55 (0009ms, 0030ms total)
T2048 2079:509 Logging started @ 2019-08-06 11:02 (0009ms, 0030ms total)
T2048 2079:518 JLINK_SetWarnOutHandler(...) (0001ms, 0031ms total)
T2048 2079:519 JLINK_OpenEx(...)
Firmware: J-Link OB-SAM3U128-V2-NordicSemi compiled Jul 12 2018 11:44:41
Hardware: V1.00
S/N: 682137242
TELNET listener socket opened on port 19021WEBSRV 
Starting webserver (0040ms, 0071ms total)
T2048 2079:519 WEBSRV Webserver running on local port 19080 (0040ms, 0071ms total)
T2048 2079:519   returns O.K. (0040ms, 0071ms total)
T2048 2079:559 JLINK_GetEmuCaps()  returns 0xB8EA5A33 (0000ms, 0071ms total)
T2048 2079:560 JLINK_TIF_GetAvailable(...) (0000ms, 0072ms total)
T2048 2079:560 JLINK_SetErrorOutHandler(...) (0000ms, 0072ms total)
T2048 2079:560 JLINK_ExecCommand("ProjectFile = "D:\2019.8.6 主机一拖八\实验38：1主机带多从机\examples\ble_central\ble_app_multilink_central\pca10040\s132\arm5_no_packs\JLinkSettings.ini"", ...).   returns 0x00 (0019ms, 0091ms total)
T2048 2079:590 JLINK_ExecCommand("Device = nRF52832_xxAA", ...). Device "NRF52832_XXAA" selected.  returns 0x00 (0010ms, 0101ms total)
T2048 2079:600 JLINK_ExecCommand("DisableConnectionTimeout", ...).   returns 0x01 (0000ms, 0101ms total)
T2048 2079:600 JLINK_GetHardwareVersion()  returns 0x2710 (0000ms, 0101ms total)
T2048 2079:600 JLINK_GetDLLVersion()  returns 63209 (0001ms, 0102ms total)
T2048 2079:601 JLINK_GetFirmwareString(...) (0000ms, 0102ms total)
T2048 2079:617 JLINK_GetDLLVersion()  returns 63209 (0000ms, 0102ms total)
T2048 2079:617 JLINK_GetCompileDateTime() (0000ms, 0102ms total)
T2048 2079:625 JLINK_GetFirmwareString(...) (0000ms, 0102ms total)
T2048 2079:630 JLINK_GetHardwareVersion()  returns 0x2710 (0000ms, 0102ms total)
T2048 2079:640 JLINK_TIF_Select(JLINKARM_TIF_SWD)  returns 0x00 (0001ms, 0103ms total)
T2048 2079:641 JLINK_SetSpeed(5000) (0000ms, 0103ms total)
T2048 2079:641 JLINK_GetId() >0x10B TIF>Found SW-DP with ID 0x2BA01477 >0x0D TIF> >0x28 TIF> >0x0D TIF> >0x28 TIF> >0x10B TIF>Found SW-DP with ID 0x2BA01477 >0x0D TIF> >0x28 TIF> >0x0D TIF> >0x28 TIF> >0x0D TIF> >0x28 TIF> >0x0D TIF> >0x28 TIF> >0x35 TIF> >0x0D TIF> >0x28 TIF>Scanning AP map to find all available APs >0x0D TIF> >0x28 TIF> >0x35 TIF> >0x35 TIF> >0x0D TIF> >0x28 TIF> >0x35 TIF> >0x35 TIF> >0x0D TIF> >0x28 TIF> >0x35 TIF> >0x35 TIF>AP[2]: Stopped AP scan as end of AP map has been reached
AP[0]: AHB-AP (IDR: 0x24770011)AP[1]: JTAG-AP (IDR: 0x02880000)Iterating through AP map to find AHB-AP to use >0x42 TIF> >0x28 TIF> >0x0D TIF> >0x28 TIF> >0x35 TIF> >0x35 TIF> >0x42 TIF> >0x28 TIF> >0x0D TIF> >0x28 TIF> >0x0D TIF> >0x28 TIF> >0x35 TIF> >0x35 TIF>AP[0]: Core foundAP[0]: AHB-AP ROM base: 0xE00FF000 >0x0D TIF> >0x28 TIF> >0x0D TIF> >0x28 TIF> >0x0D TIF> >0x28 TIF> >0x35 TIF> >0x35 TIF>CPUID register: 0x410FC241. Implementer code: 0x41 (ARM)Found Cortex-M4 r0p1, Little endian.
 -- Max. mem block: 0x000048E8 -- CPU_ReadMem(4 bytes @ 0xE000EDF0) -- CPU_WriteMem(4 bytes @ 0xE000EDF0) -- CPU_ReadMem(4 bytes @ 0xE0002000)FPUnit: 6 code (BP) slots and 2 literal slots -- CPU_ReadMem(4 bytes @ 0xE000EDFC) -- CPU_WriteMem(4 bytes @ 0xE000EDFC) -- CPU_ReadMem(4 bytes @ 0xE0001000) -- CPU_WriteMem(4 bytes @ 0xE0001000) -- CPU_ReadMem(4 bytes @ 0xE000ED88) -- CPU_WriteMem(4 bytes @ 0xE000ED88) -- CPU_ReadMem(4 bytes @ 0xE000ED88) -- CPU_WriteMem(4 bytes @ 0xE000ED88)CoreSight components:
ROMTbl[0] @ E00FF000 -- CPU_ReadMem(16 bytes @ 0xE00FF000) -- CPU_ReadMem(16 bytes @ 0xE000EFF0) -- CPU_ReadMem(16 bytes @ 0xE000EFE0)ROMTbl[0][0]: E000E000, CID: B105E00D, PID: 000BB00C SCS-M7 -- CPU_ReadMem(16 bytes @ 0xE0001FF0) -- CPU_ReadMem(16 bytes @ 0xE0001FE0)ROMTbl[0][1]: E0001000, CID: B105E00D, PID: 003BB002 DWT -- CPU_ReadMem(16 bytes @ 0xE0002FF0) -- CPU_ReadMem(16 bytes @ 0xE0002FE0)ROMTbl[0][2]: E0002000, CID: B105E00D, PID: 002BB003 FPB -- CPU_ReadMem(16 bytes @ 0xE0000FF0)
 -- CPU_ReadMem(16 bytes @ 0xE0000FE0)ROMTbl[0][3]: E0000000, CID: B105E00D, PID: 003BB001 ITM -- CPU_ReadMem(16 bytes @ 0xE00FF010) -- CPU_ReadMem(16 bytes @ 0xE0040FF0) -- CPU_ReadMem(16 bytes @ 0xE0040FE0)ROMTbl[0][4]: E0040000, CID: B105900D, PID: 000BB9A1 TPIU -- CPU_ReadMem(16 bytes @ 0xE0041FF0) -- CPU_ReadMem(16 bytes @ 0xE0041FE0)ROMTbl[0][5]: E0041000, CID: B105900D, PID: 000BB925 ETM >0x35 TIF>  returns 0x2BA01477 (0201ms, 0304ms total)
T2048 2079:842 JLINK_GetDLLVersion()  returns 63209 (0000ms, 0304ms total)
T2048 2079:842 JLINK_CORE_GetFound()  returns 0xE0000FF (0000ms, 0304ms total)
T2048 2079:842 JLINK_GetDebugInfo(0x100 = JLINKARM_ROM_TABLE_ADDR_INDEX) -- Value=0xE00FF000  returns 0x00 (0000ms, 0304ms total)
T2048 2079:845 JLINK_GetDebugInfo(0x100 = JLINKARM_ROM_TABLE_ADDR_INDEX) -- Value=0xE00FF000  returns 0x00 (0000ms, 0304ms total)
T2048 2079:845 JLINK_GetDebugInfo(0x101 = JLINKARM_DEBUG_INFO_ETM_ADDR_INDEX) -- Value=0xE0041000  returns 0x00 (0000ms, 0304ms total)
T2048 2079:845 JLINK_ReadMemEx(0xE0041FD0, 0x0020 Bytes, ..., Flags = 0x02000004) -- CPU_ReadMem(32 bytes @ 0xE0041FD0) - Data: 04 00 00 00 00 00 00 00 00 00 00 00 00 00 00 00 ...  returns 0x20 (0001ms, 0305ms total)
T2048 2079:846 JLINK_GetDebugInfo(0x102 = JLINKARM_DEBUG_INFO_MTB_ADDR_INDEX) -- Value=0x00000000  returns 0x00 (0000ms, 0305ms total)
T2048 2079:846 JLINK_GetDebugInfo(0x103 = JLINKARM_DEBUG_INFO_TPIU_ADDR_INDEX) -- Value=0xE0040000  returns 0x00 (0000ms, 0305ms total)
T2048 2079:846 JLINK_GetDebugInfo(0x104 = JLINKARM_DEBUG_INFO_ITM_ADDR_INDEX) -- Value=0xE0000000  returns 0x00 (0000ms, 0305ms total)
T2048 2079:846 JLINK_GetDebugInfo(0x105 = JLINKARM_DEBUG_INFO_DWT_ADDR_INDEX) -- Value=0xE0001000  returns 0x00 (0000ms, 0305ms total)
T2048 2079:846 JLINK_GetDebugInfo(0x106 = JLINKARM_DEBUG_INFO_FPB_ADDR_INDEX) -- Value=0xE0002000  returns 0x00 (0000ms, 0305ms total)
T2048 2079:846 JLINK_GetDebugInfo(0x107 = JLINKARM_DEBUG_INFO_NVIC_ADDR_INDEX) -- Value=0xE000E000  returns 0x00 (0000ms, 0305ms total)
T2048 2079:846 JLINK_GetDebugInfo(0x10C = JLINKARM_DEBUG_INFO_DBG_ADDR_INDEX) -- Value=0xE000EDF0  returns 0x00 (0000ms, 0305ms total)
T2048 2079:846 JLINK_GetDebugInfo(0x01 = Unknown) -- Value=0x00000001  returns 0x00 (0001ms, 0306ms total)
T2048 2079:847 JLINK_ReadMemU32(0xE000ED00, 0x0001 Items, ...) -- CPU_ReadMem(4 bytes @ 0xE000ED00) - Data: 41 C2 0F 41  returns 0x01 (0000ms, 0306ms total)
T2048 2079:847 JLINK_GetDebugInfo(0x10F = JLINKARM_DEBUG_INFO_HAS_CORTEX_M_SECURITY_EXT_INDEX) -- Value=0x00000000  returns 0x00 (0000ms, 0306ms total)
T2048 2079:847 JLINK_SetResetType(JLINKARM_CM3_RESET_TYPE_NORMAL)  returns JLINKARM_CM3_RESET_TYPE_NORMAL (0000ms, 0306ms total)
T2048 2079:847 JLINK_Reset() -- CPU is running -- CPU_WriteMem(4 bytes @ 0xE000EDF0) -- CPU is running -- CPU_WriteMem(4 bytes @ 0xE000EDFC)Reset: Halt core after reset via DEMCR.VC_CORERESET. >0x35 TIF>Reset: Reset device via AIRCR.SYSRESETREQ. -- CPU is running -- CPU_WriteMem(4 bytes @ 0xE000ED0C) >0x0D TIF> >0x28 TIF> -- CPU_ReadMem(4 bytes @ 0xE000EDF0) -- CPU_ReadMem(4 bytes @ 0xE000EDF0) -- CPU is running -- CPU_WriteMem(4 bytes @ 0xE000EDF0) -- CPU is running -- CPU_WriteMem(4 bytes @ 0xE000EDFC)
 -- CPU_ReadMem(4 bytes @ 0xE000EDF0) -- CPU_WriteMem(4 bytes @ 0xE0002000) -- CPU_ReadMem(4 bytes @ 0xE000EDFC) -- CPU_ReadMem(4 bytes @ 0xE0001000) (0081ms, 0387ms total)
T2048 2079:928 JLINK_Halt()  returns 0x00 (0000ms, 0387ms total)
T2048 2079:928 JLINK_ReadMemU32(0xE000EDF0, 0x0001 Items, ...) -- CPU_ReadMem(4 bytes @ 0xE000EDF0) - Data: 03 00 03 00  returns 0x01 (0001ms, 0388ms total)
T2048 2079:929 JLINK_WriteU32(0xE000EDF0, 0xA05F0003) -- CPU_WriteMem(4 bytes @ 0xE000EDF0)  returns 0x00 (0001ms, 0389ms total)
T2048 2079:930 JLINK_WriteU32(0xE000EDFC, 0x01000000) -- CPU_WriteMem(4 bytes @ 0xE000EDFC)  returns 0x00 (0000ms, 0389ms total)
T2048 2079:942 JLINK_GetHWStatus(...)  returns 0x00 (0000ms, 0389ms total)
T2048 2079:953 JLINK_GetNumBPUnits(Type = 0xFFFFFF00)  returns 0x06 (0000ms, 0389ms total)
T2048 2079:953 JLINK_GetNumBPUnits(Type = 0xF0)  returns 0x2000 (0000ms, 0389ms total)
T2048 2079:953 JLINK_GetNumWPUnits()  returns 0x04 (0000ms, 0389ms total)
T2048 2079:963 JLINK_GetSpeed()  returns 0x3E8 (0000ms, 0389ms total)
T2048 2079:969 JLINK_ReadMemU32(0xE000E004, 0x0001 Items, ...) -- CPU_ReadMem(4 bytes @ 0xE000E004) - Data: 01 00 00 00  returns 0x01 (0001ms, 0390ms total)
T2048 2079:970 JLINK_ReadMemU32(0xE000E004, 0x0001 Items, ...) -- CPU_ReadMem(4 bytes @ 0xE000E004) - Data: 01 00 00 00  returns 0x01 (0000ms, 0390ms total)
T2048 2079:970 JLINK_WriteMemEx(0xE0001000, 0x001C Bytes, ..., Flags = 0x02000004) - Data: 01 00 00 00 00 00 00 00 00 00 00 00 00 00 00 00 ... -- CPU_WriteMem(28 bytes @ 0xE0001000)  returns 0x1C (0002ms, 0392ms total)
T2048 2079:972 JLINK_Halt()  returns 0x00 (0000ms, 0392ms total)
T2048 2079:972 JLINK_IsHalted()  returns TRUE (0000ms, 0392ms total)
T2048 2080:047 JLINK_WriteMem(0x20000000, 0x0234 Bytes, ...) - Data: 00 BE 0A E0 0D 78 2D 06 68 40 08 24 40 00 00 D3 ... -- CPU_WriteMem(564 bytes @ 0x20000000)  returns 0x234 (0009ms, 0401ms total)
T2048 2080:056 JLINK_WriteReg(R0, 0x00000000)  returns 0x00 (0000ms, 0401ms total)
T2048 2080:056 JLINK_WriteReg(R1, 0x03D09000)  returns 0x00 (0000ms, 0401ms total)
T2048 2080:056 JLINK_WriteReg(R2, 0x00000001)  returns 0x00 (0000ms, 0401ms total)
T2048 2080:056 JLINK_WriteReg(R3, 0x00000000)  returns 0x00 (0000ms, 0401ms total)
T2048 2080:056 JLINK_WriteReg(R4, 0x00000000)  returns 0x00 (0000ms, 0401ms total)
T2048 2080:056 JLINK_WriteReg(R5, 0x00000000)  returns 0x00 (0000ms, 0401ms total)
T2048 2080:056 JLINK_WriteReg(R6, 0x00000000)  returns 0x00 (0000ms, 0401ms total)
T2048 2080:056 JLINK_WriteReg(R7, 0x00000000)  returns 0x00 (0000ms, 0401ms total)
T2048 2080:056 JLINK_WriteReg(R8, 0x00000000)  returns 0x00 (0000ms, 0401ms total)
T2048 2080:056 JLINK_WriteReg(R9, 0x20000230)  returns 0x00 (0000ms, 0401ms total)
T2048 2080:056 JLINK_WriteReg(R10, 0x00000000)  returns 0x00 (0000ms, 0401ms total)
T2048 2080:056 JLINK_WriteReg(R11, 0x00000000)  returns 0x00 (0000ms, 0401ms total)
T2048 2080:056 JLINK_WriteReg(R12, 0x00000000)  returns 0x00 (0000ms, 0401ms total)
T2048 2080:056 JLINK_WriteReg(R13 (SP), 0x20002000)  returns 0x00 (0000ms, 0401ms total)
T2048 2080:056 JLINK_WriteReg(R14, 0x20000001)  returns 0x00 (0000ms, 0401ms total)
T2048 2080:056 JLINK_WriteReg(R15 (PC), 0x2000003C)  returns 0x00 (0000ms, 0401ms total)
T2048 2080:056 JLINK_WriteReg(XPSR, 0x01000000)  returns 0x00 (0000ms, 0401ms total)
T2048 2080:056 JLINK_WriteReg(MSP, 0x20002000)  returns 0x00 (0000ms, 0401ms total)
T2048 2080:057 JLINK_WriteReg(PSP, 0x20002000)  returns 0x00 (0000ms, 0402ms total)
T2048 2080:057 JLINK_WriteReg(CFBP, 0x00000000)  returns 0x00 (0000ms, 0402ms total)
T2048 2080:057 JLINK_SetBPEx(Addr = 0x20000000, Type = 0xFFFFFFF2) -- CPU_ReadMem(2 bytes @ 0x20000000)  returns 0x00000001 (0000ms, 0402ms total)
T2048 2080:057 JLINK_Go() -- CPU_WriteMem(2 bytes @ 0x20000000) -- CPU_ReadMem(4 bytes @ 0xE0001000) -- CPU_WriteMem(4 bytes @ 0xE0002008) -- CPU_WriteMem(4 bytes @ 0xE000200C) -- CPU_WriteMem(4 bytes @ 0xE0002010) -- CPU_WriteMem(4 bytes @ 0xE0002014) -- CPU_WriteMem(4 bytes @ 0xE0002018) -- CPU_WriteMem(4 bytes @ 0xE000201C) -- CPU_WriteMem(4 bytes @ 0xE0001004) (0008ms, 0410ms total)
T2048 2080:065 JLINK_IsHalted() -- CPU_ReadMem(2 bytes @ 0x20000000)  returns TRUE (0007ms, 0417ms total)
T2048 2080:072 JLINK_ReadReg(R15 (PC))  returns 0x20000000 (0000ms, 0410ms total)
T2048 2080:072 JLINK_ClrBPEx(BPHandle = 0x00000001)  returns 0x00 (0000ms, 0410ms total)
T2048 2080:072 JLINK_ReadReg(R0)  returns 0x00000000 (0000ms, 0410ms total)
T2048 2080:074 JLINK_WriteReg(R0, 0x00026000)  returns 0x00 (0000ms, 0410ms total)
T2048 2080:074 JLINK_WriteReg(R1, 0x00001000)  returns 0x00 (0000ms, 0410ms total)
T2048 2080:074 JLINK_WriteReg(R2, 0x000000FF)  returns 0x00 (0000ms, 0410ms total)
T2048 2080:074 JLINK_WriteReg(R3, 0x00000000)  returns 0x00 (0000ms, 0410ms total)
T2048 2080:074 JLINK_WriteReg(R4, 0x00000000)  returns 0x00 (0000ms, 0410ms total)
T2048 2080:074 JLINK_WriteReg(R5, 0x00000000)  returns 0x00 (0000ms, 0410ms total)
T2048 2080:074 JLINK_WriteReg(R6, 0x00000000)  returns 0x00 (0000ms, 0410ms total)
T2048 2080:074 JLINK_WriteReg(R7, 0x00000000)  returns 0x00 (0000ms, 0410ms total)
T2048 2080:074 JLINK_WriteReg(R8, 0x00000000)  returns 0x00 (0000ms, 0410ms total)
T2048 2080:074 JLINK_WriteReg(R9, 0x20000230)  returns 0x00 (0000ms, 0410ms total)
T2048 2080:074 JLINK_WriteReg(R10, 0x00000000)  returns 0x00 (0000ms, 0410ms total)
T2048 2080:074 JLINK_WriteReg(R11, 0x00000000)  returns 0x00 (0000ms, 0410ms total)
T2048 2080:074 JLINK_WriteReg(R12, 0x00000000)  returns 0x00 (0000ms, 0410ms total)
T2048 2080:074 JLINK_WriteReg(R13 (SP), 0x20002000)  returns 0x00 (0000ms, 0410ms total)
T2048 2080:075 JLINK_WriteReg(R14, 0x20000001)  returns 0x00 (0000ms, 0410ms total)
T2048 2080:075 JLINK_WriteReg(R15 (PC), 0x2000011A)  returns 0x00 (0000ms, 0410ms total)
T2048 2080:075 JLINK_WriteReg(XPSR, 0x01000000)  returns 0x00 (0000ms, 0410ms total)
T2048 2080:075 JLINK_WriteReg(MSP, 0x20002000)  returns 0x00 (0000ms, 0410ms total)
T2048 2080:075 JLINK_WriteReg(PSP, 0x20002000)  returns 0x00 (0000ms, 0410ms total)
T2048 2080:075 JLINK_WriteReg(CFBP, 0x00000000)  returns 0x00 (0000ms, 0410ms total)
T2048 2080:075 JLINK_SetBPEx(Addr = 0x20000000, Type = 0xFFFFFFF2)  returns 0x00000002 (0000ms, 0410ms total)
T2048 2080:075 JLINK_Go() -- CPU_ReadMem(4 bytes @ 0xE0001000) (0003ms, 0413ms total)
T2048 2080:079 JLINK_IsHalted() -- CPU_ReadMem(2 bytes @ 0x20000000)  returns TRUE (0007ms, 0420ms total)
T2048 2080:086 JLINK_ReadReg(R15 (PC))  returns 0x20000000 (0000ms, 0413ms total)
T2048 2080:086 JLINK_ClrBPEx(BPHandle = 0x00000002)  returns 0x00 (0000ms, 0413ms total)
T2048 2080:086 JLINK_ReadReg(R0)  returns 0x00000001 (0000ms, 0413ms total)
T2048 2080:086 JLINK_WriteReg(R0, 0x00026000)  returns 0x00 (0000ms, 0413ms total)
T2048 2080:086 JLINK_WriteReg(R1, 0x00001000)  returns 0x00 (0000ms, 0413ms total)
T2048 2080:087 JLINK_WriteReg(R2, 0x000000FF)  returns 0x00 (0000ms, 0414ms total)
T2048 2080:087 JLINK_WriteReg(R3, 0x00000000)  returns 0x00 (0000ms, 0414ms total)
T2048 2080:087 JLINK_WriteReg(R4, 0x00000000)  returns 0x00 (0000ms, 0414ms total)
T2048 2080:087 JLINK_WriteReg(R5, 0x00000000)  returns 0x00 (0000ms, 0414ms total)
T2048 2080:087 JLINK_WriteReg(R6, 0x00000000)  returns 0x00 (0000ms, 0414ms total)
T2048 2080:087 JLINK_WriteReg(R7, 0x00000000)  returns 0x00 (0000ms, 0414ms total)
T2048 2080:087 JLINK_WriteReg(R8, 0x00000000)  returns 0x00 (0000ms, 0414ms total)
T2048 2080:087 JLINK_WriteReg(R9, 0x20000230)  returns 0x00 (0000ms, 0414ms total)
T2048 2080:087 JLINK_WriteReg(R10, 0x00000000)  returns 0x00 (0000ms, 0414ms total)
T2048 2080:087 JLINK_WriteReg(R11, 0x00000000)  returns 0x00 (0000ms, 0414ms total)
T2048 2080:087 JLINK_WriteReg(R12, 0x00000000)  returns 0x00 (0000ms, 0414ms total)
T2048 2080:087 JLINK_WriteReg(R13 (SP), 0x20002000)  returns 0x00 (0000ms, 0414ms total)
T2048 2080:087 JLINK_WriteReg(R14, 0x20000001)  returns 0x00 (0000ms, 0414ms total)
T2048 2080:087 JLINK_WriteReg(R15 (PC), 0x200000D8)  returns 0x00 (0000ms, 0414ms total)
T2048 2080:087 JLINK_WriteReg(XPSR, 0x01000000)  returns 0x00 (0000ms, 0414ms total)
T2048 2080:087 JLINK_WriteReg(MSP, 0x20002000)  returns 0x00 (0000ms, 0414ms total)
T2048 2080:087 JLINK_WriteReg(PSP, 0x20002000)  returns 0x00 (0000ms, 0414ms total)
T2048 2080:087 JLINK_WriteReg(CFBP, 0x00000000)  returns 0x00 (0000ms, 0414ms total)
T2048 2080:087 JLINK_SetBPEx(Addr = 0x20000000, Type = 0xFFFFFFF2)  returns 0x00000003 (0000ms, 0414ms total)
T2048 2080:087 JLINK_Go() -- CPU_ReadMem(4 bytes @ 0xE0001000) (0002ms, 0416ms total)
T2048 2080:089 JLINK_IsHalted()  returns FALSE (0001ms, 0417ms total)
T2048 2080:134 JLINK_IsHalted() -- CPU_ReadMem(2 bytes @ 0x20000000)  returns TRUE (0007ms, 0423ms total)
T2048 2080:141 JLINK_ReadReg(R15 (PC))  returns 0x20000000 (0000ms, 0416ms total)
T2048 2080:141 JLINK_ClrBPEx(BPHandle = 0x00000003)  returns 0x00 (0000ms, 0416ms total)
T2048 2080:141 JLINK_ReadReg(R0)  returns 0x00000000 (0000ms, 0416ms total)
T2048 2080:143 JLINK_WriteReg(R0, 0x00027000)  returns 0x00 (0000ms, 0416ms total)
T2048 2080:143 JLINK_WriteReg(R1, 0x00001000)  returns 0x00 (0000ms, 0416ms total)
T2048 2080:143 JLINK_WriteReg(R2, 0x000000FF)  returns 0x00 (0000ms, 0416ms total)
T2048 2080:143 JLINK_WriteReg(R3, 0x00000000)  returns 0x00 (0000ms, 0416ms total)
T2048 2080:143 JLINK_WriteReg(R4, 0x00000000)  returns 0x00 (0000ms, 0416ms total)
T2048 2080:143 JLINK_WriteReg(R5, 0x00000000)  returns 0x00 (0000ms, 0416ms total)
T2048 2080:143 JLINK_WriteReg(R6, 0x00000000)  returns 0x00 (0000ms, 0416ms total)
T2048 2080:143 JLINK_WriteReg(R7, 0x00000000)  returns 0x00 (0000ms, 0416ms total)
T2048 2080:143 JLINK_WriteReg(R8, 0x00000000)  returns 0x00 (0000ms, 0416ms total)
T2048 2080:143 JLINK_WriteReg(R9, 0x20000230)  returns 0x00 (0000ms, 0416ms total)
T2048 2080:143 JLINK_WriteReg(R10, 0x00000000)  returns 0x00 (0000ms, 0416ms total)
T2048 2080:143 JLINK_WriteReg(R11, 0x00000000)  returns 0x00 (0000ms, 0416ms total)
T2048 2080:143 JLINK_WriteReg(R12, 0x00000000)  returns 0x00 (0000ms, 0416ms total)
T2048 2080:143 JLINK_WriteReg(R13 (SP), 0x20002000)  returns 0x00 (0000ms, 0416ms total)
T2048 2080:143 JLINK_WriteReg(R14, 0x20000001)  returns 0x00 (0000ms, 0416ms total)
T2048 2080:143 JLINK_WriteReg(R15 (PC), 0x2000011A)  returns 0x00 (0000ms, 0416ms total)
T2048 2080:143 JLINK_WriteReg(XPSR, 0x01000000)  returns 0x00 (0000ms, 0416ms total)
T2048 2080:143 JLINK_WriteReg(MSP, 0x20002000)  returns 0x00 (0000ms, 0416ms total)
T2048 2080:143 JLINK_WriteReg(PSP, 0x20002000)  returns 0x00 (0000ms, 0416ms total)
T2048 2080:143 JLINK_WriteReg(CFBP, 0x00000000)  returns 0x00 (0000ms, 0416ms total)
T2048 2080:143 JLINK_SetBPEx(Addr = 0x20000000, Type = 0xFFFFFFF2)  returns 0x00000004 (0000ms, 0416ms total)
T2048 2080:143 JLINK_Go() -- CPU_ReadMem(4 bytes @ 0xE0001000) (0003ms, 0419ms total)
T2048 2080:147 JLINK_IsHalted() -- CPU_ReadMem(2 bytes @ 0x20000000)  returns TRUE (0007ms, 0426ms total)
T2048 2080:154 JLINK_ReadReg(R15 (PC))  returns 0x20000000 (0000ms, 0419ms total)
T2048 2080:154 JLINK_ClrBPEx(BPHandle = 0x00000004)  returns 0x00 (0000ms, 0419ms total)
T2048 2080:154 JLINK_ReadReg(R0)  returns 0x00000001 (0000ms, 0419ms total)
T2048 2080:154 JLINK_WriteReg(R0, 0x00027000)  returns 0x00 (0000ms, 0419ms total)
T2048 2080:154 JLINK_WriteReg(R1, 0x00001000)  returns 0x00 (0000ms, 0419ms total)
T2048 2080:154 JLINK_WriteReg(R2, 0x000000FF)  returns 0x00 (0000ms, 0419ms total)
T2048 2080:154 JLINK_WriteReg(R3, 0x00000000)  returns 0x00 (0000ms, 0419ms total)
T2048 2080:154 JLINK_WriteReg(R4, 0x00000000)  returns 0x00 (0000ms, 0419ms total)
T2048 2080:154 JLINK_WriteReg(R5, 0x00000000)  returns 0x00 (0000ms, 0419ms total)
T2048 2080:154 JLINK_WriteReg(R6, 0x00000000)  returns 0x00 (0000ms, 0419ms total)
T2048 2080:154 JLINK_WriteReg(R7, 0x00000000)  returns 0x00 (0000ms, 0419ms total)
T2048 2080:154 JLINK_WriteReg(R8, 0x00000000)  returns 0x00 (0000ms, 0419ms total)
T2048 2080:154 JLINK_WriteReg(R9, 0x20000230)  returns 0x00 (0000ms, 0419ms total)
T2048 2080:154 JLINK_WriteReg(R10, 0x00000000)  returns 0x00 (0000ms, 0419ms total)
T2048 2080:154 JLINK_WriteReg(R11, 0x00000000)  returns 0x00 (0000ms, 0419ms total)
T2048 2080:154 JLINK_WriteReg(R12, 0x00000000)  returns 0x00 (0000ms, 0419ms total)
T2048 2080:154 JLINK_WriteReg(R13 (SP), 0x20002000)  returns 0x00 (0000ms, 0419ms total)
T2048 2080:154 JLINK_WriteReg(R14, 0x20000001)  returns 0x00 (0000ms, 0419ms total)
T2048 2080:154 JLINK_WriteReg(R15 (PC), 0x200000D8)  returns 0x00 (0000ms, 0419ms total)
T2048 2080:154 JLINK_WriteReg(XPSR, 0x01000000)  returns 0x00 (0000ms, 0419ms total)
T2048 2080:154 JLINK_WriteReg(MSP, 0x20002000)  returns 0x00 (0000ms, 0419ms total)
T2048 2080:154 JLINK_WriteReg(PSP, 0x20002000)  returns 0x00 (0000ms, 0419ms total)
T2048 2080:154 JLINK_WriteReg(CFBP, 0x00000000)  returns 0x00 (0000ms, 0419ms total)
T2048 2080:154 JLINK_SetBPEx(Addr = 0x20000000, Type = 0xFFFFFFF2)  returns 0x00000005 (0000ms, 0419ms total)
T2048 2080:154 JLINK_Go() -- CPU_ReadMem(4 bytes @ 0xE0001000) (0003ms, 0422ms total)
T2048 2080:157 JLINK_IsHalted()  returns FALSE (0001ms, 0423ms total)
T2048 2080:160 JLINK_IsHalted() -- CPU_ReadMem(2 bytes @ 0x20000000)  returns TRUE (0007ms, 0429ms total)
T2048 2080:167 JLINK_ReadReg(R15 (PC))  returns 0x20000000 (0000ms, 0422ms total)
T2048 2080:167 JLINK_ClrBPEx(BPHandle = 0x00000005)  returns 0x00 (0000ms, 0422ms total)
T2048 2080:167 JLINK_ReadReg(R0)  returns 0x00000000 (0000ms, 0422ms total)
T2048 2080:167 JLINK_WriteReg(R0, 0x00028000)  returns 0x00 (0000ms, 0422ms total)
T2048 2080:167 JLINK_WriteReg(R1, 0x00001000)  returns 0x00 (0001ms, 0423ms total)
T2048 2080:168 JLINK_WriteReg(R2, 0x000000FF)  returns 0x00 (0000ms, 0423ms total)
T2048 2080:168 JLINK_WriteReg(R3, 0x00000000)  returns 0x00 (0000ms, 0423ms total)
T2048 2080:168 JLINK_WriteReg(R4, 0x00000000)  returns 0x00 (0000ms, 0423ms total)
T2048 2080:168 JLINK_WriteReg(R5, 0x00000000)  returns 0x00 (0000ms, 0423ms total)
T2048 2080:168 JLINK_WriteReg(R6, 0x00000000)  returns 0x00 (0000ms, 0423ms total)
T2048 2080:168 JLINK_WriteReg(R7, 0x00000000)  returns 0x00 (0000ms, 0423ms total)
T2048 2080:168 JLINK_WriteReg(R8, 0x00000000)  returns 0x00 (0000ms, 0423ms total)
T2048 2080:168 JLINK_WriteReg(R9, 0x20000230)  returns 0x00 (0000ms, 0423ms total)
T2048 2080:168 JLINK_WriteReg(R10, 0x00000000)  returns 0x00 (0000ms, 0423ms total)
T2048 2080:168 JLINK_WriteReg(R11, 0x00000000)  returns 0x00 (0000ms, 0423ms total)
T2048 2080:168 JLINK_WriteReg(R12, 0x00000000)  returns 0x00 (0000ms, 0423ms total)
T2048 2080:168 JLINK_WriteReg(R13 (SP), 0x20002000)  returns 0x00 (0000ms, 0423ms total)
T2048 2080:168 JLINK_WriteReg(R14, 0x20000001)  returns 0x00 (0000ms, 0423ms total)
T2048 2080:168 JLINK_WriteReg(R15 (PC), 0x2000011A)  returns 0x00 (0000ms, 0423ms total)
T2048 2080:168 JLINK_WriteReg(XPSR, 0x01000000)  returns 0x00 (0000ms, 0423ms total)
T2048 2080:168 JLINK_WriteReg(MSP, 0x20002000)  returns 0x00 (0000ms, 0423ms total)
T2048 2080:168 JLINK_WriteReg(PSP, 0x20002000)  returns 0x00 (0000ms, 0423ms total)
T2048 2080:168 JLINK_WriteReg(CFBP, 0x00000000)  returns 0x00 (0000ms, 0423ms total)
T2048 2080:168 JLINK_SetBPEx(Addr = 0x20000000, Type = 0xFFFFFFF2)  returns 0x00000006 (0000ms, 0423ms total)
T2048 2080:168 JLINK_Go() -- CPU_ReadMem(4 bytes @ 0xE0001000) (0004ms, 0427ms total)
T2048 2080:172 JLINK_IsHalted() -- CPU_ReadMem(2 bytes @ 0x20000000)  returns TRUE (0007ms, 0434ms total)
T2048 2080:179 JLINK_ReadReg(R15 (PC))  returns 0x20000000 (0001ms, 0428ms total)
T2048 2080:180 JLINK_ClrBPEx(BPHandle = 0x00000006)  returns 0x00 (0000ms, 0428ms total)
T2048 2080:180 JLINK_ReadReg(R0)  returns 0x00000001 (0000ms, 0428ms total)
T2048 2080:180 JLINK_WriteReg(R0, 0x00028000)  returns 0x00 (0000ms, 0428ms total)
T2048 2080:180 JLINK_WriteReg(R1, 0x00001000)  returns 0x00 (0000ms, 0428ms total)
T2048 2080:180 JLINK_WriteReg(R2, 0x000000FF)  returns 0x00 (0000ms, 0428ms total)
T2048 2080:180 JLINK_WriteReg(R3, 0x00000000)  returns 0x00 (0000ms, 0428ms total)
T2048 2080:180 JLINK_WriteReg(R4, 0x00000000)  returns 0x00 (0000ms, 0428ms total)
T2048 2080:180 JLINK_WriteReg(R5, 0x00000000)  returns 0x00 (0000ms, 0428ms total)
T2048 2080:180 JLINK_WriteReg(R6, 0x00000000)  returns 0x00 (0000ms, 0428ms total)
T2048 2080:180 JLINK_WriteReg(R7, 0x00000000)  returns 0x00 (0000ms, 0428ms total)
T2048 2080:180 JLINK_WriteReg(R8, 0x00000000)  returns 0x00 (0000ms, 0428ms total)
T2048 2080:180 JLINK_WriteReg(R9, 0x20000230)  returns 0x00 (0000ms, 0428ms total)
T2048 2080:180 JLINK_WriteReg(R10, 0x00000000)  returns 0x00 (0000ms, 0428ms total)
T2048 2080:180 JLINK_WriteReg(R11, 0x00000000)  returns 0x00 (0000ms, 0428ms total)
T2048 2080:180 JLINK_WriteReg(R12, 0x00000000)  returns 0x00 (0000ms, 0428ms total)
T2048 2080:180 JLINK_WriteReg(R13 (SP), 0x20002000)  returns 0x00 (0000ms, 0428ms total)
T2048 2080:180 JLINK_WriteReg(R14, 0x20000001)  returns 0x00 (0000ms, 0428ms total)
T2048 2080:180 JLINK_WriteReg(R15 (PC), 0x200000D8)  returns 0x00 (0000ms, 0428ms total)
T2048 2080:180 JLINK_WriteReg(XPSR, 0x01000000)  returns 0x00 (0000ms, 0428ms total)
T2048 2080:180 JLINK_WriteReg(MSP, 0x20002000)  returns 0x00 (0000ms, 0428ms total)
T2048 2080:180 JLINK_WriteReg(PSP, 0x20002000)  returns 0x00 (0000ms, 0428ms total)
T2048 2080:180 JLINK_WriteReg(CFBP, 0x00000000)  returns 0x00 (0000ms, 0428ms total)
T2048 2080:180 JLINK_SetBPEx(Addr = 0x20000000, Type = 0xFFFFFFF2)  returns 0x00000007 (0000ms, 0428ms total)
T2048 2080:180 JLINK_Go() -- CPU_ReadMem(4 bytes @ 0xE0001000) (0003ms, 0431ms total)
T2048 2080:183 JLINK_IsHalted()  returns FALSE (0000ms, 0431ms total)
T2048 2080:187 JLINK_IsHalted() -- CPU_ReadMem(2 bytes @ 0x20000000)  returns TRUE (0007ms, 0438ms total)
T2048 2080:194 JLINK_ReadReg(R15 (PC))  returns 0x20000000 (0000ms, 0431ms total)
T2048 2080:194 JLINK_ClrBPEx(BPHandle = 0x00000007)  returns 0x00 (0000ms, 0431ms total)
T2048 2080:194 JLINK_ReadReg(R0)  returns 0x00000000 (0000ms, 0431ms total)
T2048 2080:195 JLINK_WriteReg(R0, 0x00029000)  returns 0x00 (0000ms, 0431ms total)
T2048 2080:195 JLINK_WriteReg(R1, 0x00001000)  returns 0x00 (0000ms, 0431ms total)
T2048 2080:195 JLINK_WriteReg(R2, 0x000000FF)  returns 0x00 (0000ms, 0431ms total)
T2048 2080:195 JLINK_WriteReg(R3, 0x00000000)  returns 0x00 (0000ms, 0431ms total)
T2048 2080:195 JLINK_WriteReg(R4, 0x00000000)  returns 0x00 (0000ms, 0431ms total)
T2048 2080:195 JLINK_WriteReg(R5, 0x00000000)  returns 0x00 (0000ms, 0431ms total)
T2048 2080:195 JLINK_WriteReg(R6, 0x00000000)  returns 0x00 (0000ms, 0431ms total)
T2048 2080:195 JLINK_WriteReg(R7, 0x00000000)  returns 0x00 (0000ms, 0431ms total)
T2048 2080:195 JLINK_WriteReg(R8, 0x00000000)  returns 0x00 (0000ms, 0431ms total)
T2048 2080:195 JLINK_WriteReg(R9, 0x20000230)  returns 0x00 (0000ms, 0431ms total)
T2048 2080:195 JLINK_WriteReg(R10, 0x00000000)  returns 0x00 (0000ms, 0431ms total)
T2048 2080:195 JLINK_WriteReg(R11, 0x00000000)  returns 0x00 (0000ms, 0431ms total)
T2048 2080:195 JLINK_WriteReg(R12, 0x00000000)  returns 0x00 (0000ms, 0431ms total)
T2048 2080:196 JLINK_WriteReg(R13 (SP), 0x20002000)  returns 0x00 (0000ms, 0432ms total)
T2048 2080:196 JLINK_WriteReg(R14, 0x20000001)  returns 0x00 (0000ms, 0432ms total)
T2048 2080:196 JLINK_WriteReg(R15 (PC), 0x2000011A)  returns 0x00 (0000ms, 0432ms total)
T2048 2080:196 JLINK_WriteReg(XPSR, 0x01000000)  returns 0x00 (0000ms, 0432ms total)
T2048 2080:196 JLINK_WriteReg(MSP, 0x20002000)  returns 0x00 (0000ms, 0432ms total)
T2048 2080:196 JLINK_WriteReg(PSP, 0x20002000)  returns 0x00 (0000ms, 0432ms total)
T2048 2080:196 JLINK_WriteReg(CFBP, 0x00000000)  returns 0x00 (0000ms, 0432ms total)
T2048 2080:196 JLINK_SetBPEx(Addr = 0x20000000, Type = 0xFFFFFFF2)  returns 0x00000008 (0000ms, 0432ms total)
T2048 2080:196 JLINK_Go() -- CPU_ReadMem(4 bytes @ 0xE0001000) (0004ms, 0436ms total)
T2048 2080:200 JLINK_IsHalted() -- CPU_ReadMem(2 bytes @ 0x20000000)  returns TRUE (0007ms, 0443ms total)
T2048 2080:207 JLINK_ReadReg(R15 (PC))  returns 0x20000000 (0000ms, 0436ms total)
T2048 2080:207 JLINK_ClrBPEx(BPHandle = 0x00000008)  returns 0x00 (0000ms, 0436ms total)
T2048 2080:207 JLINK_ReadReg(R0)  returns 0x00000001 (0000ms, 0436ms total)
T2048 2080:207 JLINK_WriteReg(R0, 0x00029000)  returns 0x00 (0000ms, 0436ms total)
T2048 2080:207 JLINK_WriteReg(R1, 0x00001000)  returns 0x00 (0000ms, 0436ms total)
T2048 2080:207 JLINK_WriteReg(R2, 0x000000FF)  returns 0x00 (0000ms, 0436ms total)
T2048 2080:207 JLINK_WriteReg(R3, 0x00000000)  returns 0x00 (0000ms, 0436ms total)
T2048 2080:207 JLINK_WriteReg(R4, 0x00000000)  returns 0x00 (0000ms, 0436ms total)
T2048 2080:207 JLINK_WriteReg(R5, 0x00000000)  returns 0x00 (0000ms, 0436ms total)
T2048 2080:207 JLINK_WriteReg(R6, 0x00000000)  returns 0x00 (0000ms, 0436ms total)
T2048 2080:207 JLINK_WriteReg(R7, 0x00000000)  returns 0x00 (0000ms, 0436ms total)
T2048 2080:207 JLINK_WriteReg(R8, 0x00000000)  returns 0x00 (0000ms, 0436ms total)
T2048 2080:207 JLINK_WriteReg(R9, 0x20000230)  returns 0x00 (0000ms, 0436ms total)
T2048 2080:207 JLINK_WriteReg(R10, 0x00000000)  returns 0x00 (0000ms, 0436ms total)
T2048 2080:207 JLINK_WriteReg(R11, 0x00000000)  returns 0x00 (0000ms, 0436ms total)
T2048 2080:207 JLINK_WriteReg(R12, 0x00000000)  returns 0x00 (0000ms, 0436ms total)
T2048 2080:207 JLINK_WriteReg(R13 (SP), 0x20002000)  returns 0x00 (0000ms, 0436ms total)
T2048 2080:207 JLINK_WriteReg(R14, 0x20000001)  returns 0x00 (0000ms, 0436ms total)
T2048 2080:207 JLINK_WriteReg(R15 (PC), 0x200000D8)  returns 0x00 (0000ms, 0436ms total)
T2048 2080:207 JLINK_WriteReg(XPSR, 0x01000000)  returns 0x00 (0000ms, 0436ms total)
T2048 2080:207 JLINK_WriteReg(MSP, 0x20002000)  returns 0x00 (0000ms, 0436ms total)
T2048 2080:207 JLINK_WriteReg(PSP, 0x20002000)  returns 0x00 (0000ms, 0436ms total)
T2048 2080:207 JLINK_WriteReg(CFBP, 0x00000000)  returns 0x00 (0000ms, 0436ms total)
T2048 2080:207 JLINK_SetBPEx(Addr = 0x20000000, Type = 0xFFFFFFF2)  returns 0x00000009 (0000ms, 0436ms total)
T2048 2080:207 JLINK_Go() -- CPU_ReadMem(4 bytes @ 0xE0001000) (0003ms, 0439ms total)
T2048 2080:210 JLINK_IsHalted()  returns FALSE (0001ms, 0440ms total)
T2048 2080:215 JLINK_IsHalted() -- CPU_ReadMem(2 bytes @ 0x20000000)  returns TRUE (0007ms, 0446ms total)
T2048 2080:222 JLINK_ReadReg(R15 (PC))  returns 0x20000000 (0000ms, 0439ms total)
T2048 2080:222 JLINK_ClrBPEx(BPHandle = 0x00000009)  returns 0x00 (0000ms, 0439ms total)
T2048 2080:222 JLINK_ReadReg(R0)  returns 0x00000000 (0000ms, 0439ms total)
T2048 2080:223 JLINK_WriteReg(R0, 0x0002A000)  returns 0x00 (0000ms, 0439ms total)
T2048 2080:223 JLINK_WriteReg(R1, 0x00001000)  returns 0x00 (0000ms, 0439ms total)
T2048 2080:223 JLINK_WriteReg(R2, 0x000000FF)  returns 0x00 (0000ms, 0439ms total)
T2048 2080:223 JLINK_WriteReg(R3, 0x00000000)  returns 0x00 (0000ms, 0439ms total)
T2048 2080:223 JLINK_WriteReg(R4, 0x00000000)  returns 0x00 (0000ms, 0439ms total)
T2048 2080:223 JLINK_WriteReg(R5, 0x00000000)  returns 0x00 (0000ms, 0439ms total)
T2048 2080:223 JLINK_WriteReg(R6, 0x00000000)  returns 0x00 (0000ms, 0439ms total)
T2048 2080:223 JLINK_WriteReg(R7, 0x00000000)  returns 0x00 (0000ms, 0439ms total)
T2048 2080:223 JLINK_WriteReg(R8, 0x00000000)  returns 0x00 (0000ms, 0439ms total)
T2048 2080:223 JLINK_WriteReg(R9, 0x20000230)  returns 0x00 (0000ms, 0439ms total)
T2048 2080:223 JLINK_WriteReg(R10, 0x00000000)  returns 0x00 (0000ms, 0439ms total)
T2048 2080:223 JLINK_WriteReg(R11, 0x00000000)  returns 0x00 (0000ms, 0439ms total)
T2048 2080:223 JLINK_WriteReg(R12, 0x00000000)  returns 0x00 (0000ms, 0439ms total)
T2048 2080:223 JLINK_WriteReg(R13 (SP), 0x20002000)  returns 0x00 (0000ms, 0439ms total)
T2048 2080:223 JLINK_WriteReg(R14, 0x20000001)  returns 0x00 (0000ms, 0439ms total)
T2048 2080:223 JLINK_WriteReg(R15 (PC), 0x2000011A)  returns 0x00 (0000ms, 0439ms total)
T2048 2080:223 JLINK_WriteReg(XPSR, 0x01000000)  returns 0x00 (0000ms, 0439ms total)
T2048 2080:223 JLINK_WriteReg(MSP, 0x20002000)  returns 0x00 (0000ms, 0439ms total)
T2048 2080:223 JLINK_WriteReg(PSP, 0x20002000)  returns 0x00 (0000ms, 0439ms total)
T2048 2080:223 JLINK_WriteReg(CFBP, 0x00000000)  returns 0x00 (0000ms, 0439ms total)
T2048 2080:223 JLINK_SetBPEx(Addr = 0x20000000, Type = 0xFFFFFFF2)  returns 0x0000000A (0000ms, 0439ms total)
T2048 2080:223 JLINK_Go() -- CPU_ReadMem(4 bytes @ 0xE0001000) (0004ms, 0443ms total)
T2048 2080:227 JLINK_IsHalted() -- CPU_ReadMem(2 bytes @ 0x20000000)  returns TRUE (0007ms, 0450ms total)
T2048 2080:234 JLINK_ReadReg(R15 (PC))  returns 0x20000000 (0000ms, 0443ms total)
T2048 2080:234 JLINK_ClrBPEx(BPHandle = 0x0000000A)  returns 0x00 (0000ms, 0443ms total)
T2048 2080:234 JLINK_ReadReg(R0)  returns 0x00000001 (0000ms, 0443ms total)
T2048 2080:234 JLINK_WriteReg(R0, 0x0002A000)  returns 0x00 (0000ms, 0443ms total)
T2048 2080:234 JLINK_WriteReg(R1, 0x00001000)  returns 0x00 (0000ms, 0443ms total)
T2048 2080:234 JLINK_WriteReg(R2, 0x000000FF)  returns 0x00 (0001ms, 0444ms total)
T2048 2080:235 JLINK_WriteReg(R3, 0x00000000)  returns 0x00 (0000ms, 0444ms total)
T2048 2080:235 JLINK_WriteReg(R4, 0x00000000)  returns 0x00 (0000ms, 0444ms total)
T2048 2080:235 JLINK_WriteReg(R5, 0x00000000)  returns 0x00 (0000ms, 0444ms total)
T2048 2080:235 JLINK_WriteReg(R6, 0x00000000)  returns 0x00 (0000ms, 0444ms total)
T2048 2080:235 JLINK_WriteReg(R7, 0x00000000)  returns 0x00 (0000ms, 0444ms total)
T2048 2080:235 JLINK_WriteReg(R8, 0x00000000)  returns 0x00 (0000ms, 0444ms total)
T2048 2080:235 JLINK_WriteReg(R9, 0x20000230)  returns 0x00 (0000ms, 0444ms total)
T2048 2080:235 JLINK_WriteReg(R10, 0x00000000)  returns 0x00 (0000ms, 0444ms total)
T2048 2080:235 JLINK_WriteReg(R11, 0x00000000)  returns 0x00 (0000ms, 0444ms total)
T2048 2080:235 JLINK_WriteReg(R12, 0x00000000)  returns 0x00 (0000ms, 0444ms total)
T2048 2080:235 JLINK_WriteReg(R13 (SP), 0x20002000)  returns 0x00 (0000ms, 0444ms total)
T2048 2080:235 JLINK_WriteReg(R14, 0x20000001)  returns 0x00 (0000ms, 0444ms total)
T2048 2080:235 JLINK_WriteReg(R15 (PC), 0x200000D8)  returns 0x00 (0000ms, 0444ms total)
T2048 2080:235 JLINK_WriteReg(XPSR, 0x01000000)  returns 0x00 (0000ms, 0444ms total)
T2048 2080:235 JLINK_WriteReg(MSP, 0x20002000)  returns 0x00 (0000ms, 0444ms total)
T2048 2080:235 JLINK_WriteReg(PSP, 0x20002000)  returns 0x00 (0000ms, 0444ms total)
T2048 2080:235 JLINK_WriteReg(CFBP, 0x00000000)  returns 0x00 (0000ms, 0444ms total)
T2048 2080:235 JLINK_SetBPEx(Addr = 0x20000000, Type = 0xFFFFFFF2)  returns 0x0000000B (0000ms, 0444ms total)
T2048 2080:235 JLINK_Go() -- CPU_ReadMem(4 bytes @ 0xE0001000) (0003ms, 0447ms total)
T2048 2080:238 JLINK_IsHalted()  returns FALSE (0001ms, 0448ms total)
T2048 2080:241 JLINK_IsHalted() -- CPU_ReadMem(2 bytes @ 0x20000000)  returns TRUE (0007ms, 0454ms total)
T2048 2080:248 JLINK_ReadReg(R15 (PC))  returns 0x20000000 (0000ms, 0447ms total)
T2048 2080:248 JLINK_ClrBPEx(BPHandle = 0x0000000B)  returns 0x00 (0000ms, 0447ms total)
T2048 2080:248 JLINK_ReadReg(R0)  returns 0x00000000 (0000ms, 0447ms total)
T2048 2080:249 JLINK_WriteReg(R0, 0x0002B000)  returns 0x00 (0000ms, 0448ms total)
T2048 2080:250 JLINK_WriteReg(R1, 0x00001000)  returns 0x00 (0000ms, 0449ms total)
T2048 2080:250 JLINK_WriteReg(R2, 0x000000FF)  returns 0x00 (0000ms, 0449ms total)
T2048 2080:250 JLINK_WriteReg(R3, 0x00000000)  returns 0x00 (0000ms, 0449ms total)
T2048 2080:250 JLINK_WriteReg(R4, 0x00000000)  returns 0x00 (0000ms, 0449ms total)
T2048 2080:250 JLINK_WriteReg(R5, 0x00000000)  returns 0x00 (0000ms, 0449ms total)
T2048 2080:250 JLINK_WriteReg(R6, 0x00000000)  returns 0x00 (0000ms, 0449ms total)
T2048 2080:250 JLINK_WriteReg(R7, 0x00000000)  returns 0x00 (0000ms, 0449ms total)
T2048 2080:250 JLINK_WriteReg(R8, 0x00000000)  returns 0x00 (0000ms, 0449ms total)
T2048 2080:250 JLINK_WriteReg(R9, 0x20000230)  returns 0x00 (0000ms, 0449ms total)
T2048 2080:250 JLINK_WriteReg(R10, 0x00000000)  returns 0x00 (0000ms, 0449ms total)
T2048 2080:250 JLINK_WriteReg(R11, 0x00000000)  returns 0x00 (0000ms, 0449ms total)
T2048 2080:250 JLINK_WriteReg(R12, 0x00000000)  returns 0x00 (0000ms, 0449ms total)
T2048 2080:250 JLINK_WriteReg(R13 (SP), 0x20002000)  returns 0x00 (0000ms, 0449ms total)
T2048 2080:250 JLINK_WriteReg(R14, 0x20000001)  returns 0x00 (0000ms, 0449ms total)
T2048 2080:250 JLINK_WriteReg(R15 (PC), 0x2000011A)  returns 0x00 (0000ms, 0449ms total)
T2048 2080:250 JLINK_WriteReg(XPSR, 0x01000000)  returns 0x00 (0000ms, 0449ms total)
T2048 2080:250 JLINK_WriteReg(MSP, 0x20002000)  returns 0x00 (0000ms, 0449ms total)
T2048 2080:250 JLINK_WriteReg(PSP, 0x20002000)  returns 0x00 (0000ms, 0449ms total)
T2048 2080:250 JLINK_WriteReg(CFBP, 0x00000000)  returns 0x00 (0000ms, 0449ms total)
T2048 2080:250 JLINK_SetBPEx(Addr = 0x20000000, Type = 0xFFFFFFF2)  returns 0x0000000C (0000ms, 0449ms total)
T2048 2080:250 JLINK_Go() -- CPU_ReadMem(4 bytes @ 0xE0001000) (0004ms, 0453ms total)
T2048 2080:254 JLINK_IsHalted() -- CPU_ReadMem(2 bytes @ 0x20000000)  returns TRUE (0007ms, 0460ms total)
T2048 2080:261 JLINK_ReadReg(R15 (PC))  returns 0x20000000 (0000ms, 0453ms total)
T2048 2080:261 JLINK_ClrBPEx(BPHandle = 0x0000000C)  returns 0x00 (0000ms, 0453ms total)
T2048 2080:261 JLINK_ReadReg(R0)  returns 0x00000001 (0000ms, 0453ms total)
T2048 2080:261 JLINK_WriteReg(R0, 0x0002B000)  returns 0x00 (0000ms, 0453ms total)
T2048 2080:261 JLINK_WriteReg(R1, 0x00001000)  returns 0x00 (0000ms, 0453ms total)
T2048 2080:261 JLINK_WriteReg(R2, 0x000000FF)  returns 0x00 (0000ms, 0453ms total)
T2048 2080:261 JLINK_WriteReg(R3, 0x00000000)  returns 0x00 (0000ms, 0453ms total)
T2048 2080:261 JLINK_WriteReg(R4, 0x00000000)  returns 0x00 (0000ms, 0453ms total)
T2048 2080:261 JLINK_WriteReg(R5, 0x00000000)  returns 0x00 (0000ms, 0453ms total)
T2048 2080:261 JLINK_WriteReg(R6, 0x00000000)  returns 0x00 (0000ms, 0453ms total)
T2048 2080:261 JLINK_WriteReg(R7, 0x00000000)  returns 0x00 (0000ms, 0453ms total)
T2048 2080:261 JLINK_WriteReg(R8, 0x00000000)  returns 0x00 (0000ms, 0453ms total)
T2048 2080:261 JLINK_WriteReg(R9, 0x20000230)  returns 0x00 (0000ms, 0453ms total)
T2048 2080:261 JLINK_WriteReg(R10, 0x00000000)  returns 0x00 (0000ms, 0453ms total)
T2048 2080:261 JLINK_WriteReg(R11, 0x00000000)  returns 0x00 (0000ms, 0453ms total)
T2048 2080:261 JLINK_WriteReg(R12, 0x00000000)  returns 0x00 (0000ms, 0453ms total)
T2048 2080:261 JLINK_WriteReg(R13 (SP), 0x20002000)  returns 0x00 (0000ms, 0453ms total)
T2048 2080:261 JLINK_WriteReg(R14, 0x20000001)  returns 0x00 (0000ms, 0453ms total)
T2048 2080:261 JLINK_WriteReg(R15 (PC), 0x200000D8)  returns 0x00 (0000ms, 0453ms total)
T2048 2080:261 JLINK_WriteReg(XPSR, 0x01000000)  returns 0x00 (0000ms, 0453ms total)
T2048 2080:261 JLINK_WriteReg(MSP, 0x20002000)  returns 0x00 (0000ms, 0453ms total)
T2048 2080:261 JLINK_WriteReg(PSP, 0x20002000)  returns 0x00 (0000ms, 0453ms total)
T2048 2080:261 JLINK_WriteReg(CFBP, 0x00000000)  returns 0x00 (0000ms, 0453ms total)
T2048 2080:261 JLINK_SetBPEx(Addr = 0x20000000, Type = 0xFFFFFFF2)  returns 0x0000000D (0000ms, 0453ms total)
T2048 2080:261 JLINK_Go() -- CPU_ReadMem(4 bytes @ 0xE0001000) (0003ms, 0456ms total)
T2048 2080:264 JLINK_IsHalted()  returns FALSE (0001ms, 0457ms total)
T2048 2080:267 JLINK_IsHalted() -- CPU_ReadMem(2 bytes @ 0x20000000)  returns TRUE (0007ms, 0463ms total)
T2048 2080:274 JLINK_ReadReg(R15 (PC))  returns 0x20000000 (0000ms, 0456ms total)
T2048 2080:274 JLINK_ClrBPEx(BPHandle = 0x0000000D)  returns 0x00 (0000ms, 0456ms total)
T2048 2080:274 JLINK_ReadReg(R0)  returns 0x00000000 (0000ms, 0456ms total)
T2048 2080:274 JLINK_WriteReg(R0, 0x00000001)  returns 0x00 (0000ms, 0456ms total)
T2048 2080:274 JLINK_WriteReg(R1, 0x00001000)  returns 0x00 (0000ms, 0456ms total)
T2048 2080:274 JLINK_WriteReg(R2, 0x000000FF)  returns 0x00 (0000ms, 0456ms total)
T2048 2080:275 JLINK_WriteReg(R3, 0x00000000)  returns 0x00 (0000ms, 0457ms total)
T2048 2080:275 JLINK_WriteReg(R4, 0x00000000)  returns 0x00 (0000ms, 0457ms total)
T2048 2080:275 JLINK_WriteReg(R5, 0x00000000)  returns 0x00 (0000ms, 0457ms total)
T2048 2080:275 JLINK_WriteReg(R6, 0x00000000)  returns 0x00 (0000ms, 0457ms total)
T2048 2080:275 JLINK_WriteReg(R7, 0x00000000)  returns 0x00 (0000ms, 0457ms total)
T2048 2080:275 JLINK_WriteReg(R8, 0x00000000)  returns 0x00 (0000ms, 0457ms total)
T2048 2080:275 JLINK_WriteReg(R9, 0x20000230)  returns 0x00 (0000ms, 0457ms total)
T2048 2080:275 JLINK_WriteReg(R10, 0x00000000)  returns 0x00 (0000ms, 0457ms total)
T2048 2080:275 JLINK_WriteReg(R11, 0x00000000)  returns 0x00 (0000ms, 0457ms total)
T2048 2080:275 JLINK_WriteReg(R12, 0x00000000)  returns 0x00 (0000ms, 0457ms total)
T2048 2080:275 JLINK_WriteReg(R13 (SP), 0x20002000)  returns 0x00 (0000ms, 0457ms total)
T2048 2080:275 JLINK_WriteReg(R14, 0x20000001)  returns 0x00 (0000ms, 0457ms total)
T2048 2080:275 JLINK_WriteReg(R15 (PC), 0x2000008E)  returns 0x00 (0000ms, 0457ms total)
T2048 2080:275 JLINK_WriteReg(XPSR, 0x01000000)  returns 0x00 (0000ms, 0457ms total)
T2048 2080:275 JLINK_WriteReg(MSP, 0x20002000)  returns 0x00 (0000ms, 0457ms total)
T2048 2080:275 JLINK_WriteReg(PSP, 0x20002000)  returns 0x00 (0000ms, 0457ms total)
T2048 2080:275 JLINK_WriteReg(CFBP, 0x00000000)  returns 0x00 (0000ms, 0457ms total)
T2048 2080:275 JLINK_SetBPEx(Addr = 0x20000000, Type = 0xFFFFFFF2)  returns 0x0000000E (0000ms, 0457ms total)
T2048 2080:275 JLINK_Go() -- CPU_ReadMem(4 bytes @ 0xE0001000) (0004ms, 0461ms total)
T2048 2080:279 JLINK_IsHalted() -- CPU_ReadMem(2 bytes @ 0x20000000)  returns TRUE (0007ms, 0468ms total)
T2048 2080:286 JLINK_ReadReg(R15 (PC))  returns 0x20000000 (0000ms, 0461ms total)
T2048 2080:286 JLINK_ClrBPEx(BPHandle = 0x0000000E)  returns 0x00 (0000ms, 0461ms total)
T2048 2080:286 JLINK_ReadReg(R0)  returns 0x00000000 (0000ms, 0461ms total)
T2048 2080:344 JLINK_WriteMem(0x20000000, 0x0234 Bytes, ...) - Data: 00 BE 0A E0 0D 78 2D 06 68 40 08 24 40 00 00 D3 ... -- CPU_WriteMem(564 bytes @ 0x20000000)  returns 0x234 (0009ms, 0470ms total)
T2048 2080:353 JLINK_WriteReg(R0, 0x00000000)  returns 0x00 (0000ms, 0470ms total)
T2048 2080:353 JLINK_WriteReg(R1, 0x03D09000)  returns 0x00 (0000ms, 0470ms total)
T2048 2080:353 JLINK_WriteReg(R2, 0x00000002)  returns 0x00 (0000ms, 0470ms total)
T2048 2080:353 JLINK_WriteReg(R3, 0x00000000)  returns 0x00 (0000ms, 0470ms total)
T2048 2080:353 JLINK_WriteReg(R4, 0x00000000)  returns 0x00 (0000ms, 0470ms total)
T2048 2080:353 JLINK_WriteReg(R5, 0x00000000)  returns 0x00 (0000ms, 0470ms total)
T2048 2080:353 JLINK_WriteReg(R6, 0x00000000)  returns 0x00 (0000ms, 0470ms total)
T2048 2080:353 JLINK_WriteReg(R7, 0x00000000)  returns 0x00 (0000ms, 0470ms total)
T2048 2080:353 JLINK_WriteReg(R8, 0x00000000)  returns 0x00 (0000ms, 0470ms total)
T2048 2080:353 JLINK_WriteReg(R9, 0x20000230)  returns 0x00 (0000ms, 0470ms total)
T2048 2080:353 JLINK_WriteReg(R10, 0x00000000)  returns 0x00 (0000ms, 0470ms total)
T2048 2080:353 JLINK_WriteReg(R11, 0x00000000)  returns 0x00 (0000ms, 0470ms total)
T2048 2080:353 JLINK_WriteReg(R12, 0x00000000)  returns 0x00 (0000ms, 0470ms total)
T2048 2080:353 JLINK_WriteReg(R13 (SP), 0x20002000)  returns 0x00 (0000ms, 0470ms total)
T2048 2080:353 JLINK_WriteReg(R14, 0x20000001)  returns 0x00 (0000ms, 0470ms total)
T2048 2080:353 JLINK_WriteReg(R15 (PC), 0x2000003C)  returns 0x00 (0000ms, 0470ms total)
T2048 2080:353 JLINK_WriteReg(XPSR, 0x01000000)  returns 0x00 (0001ms, 0471ms total)
T2048 2080:354 JLINK_WriteReg(MSP, 0x20002000)  returns 0x00 (0000ms, 0471ms total)
T2048 2080:354 JLINK_WriteReg(PSP, 0x20002000)  returns 0x00 (0000ms, 0471ms total)
T2048 2080:354 JLINK_WriteReg(CFBP, 0x00000000)  returns 0x00 (0000ms, 0471ms total)
T2048 2080:354 JLINK_SetBPEx(Addr = 0x20000000, Type = 0xFFFFFFF2) -- CPU_ReadMem(2 bytes @ 0x20000000)  returns 0x0000000F (0000ms, 0471ms total)
T2048 2080:354 JLINK_Go() -- CPU_WriteMem(2 bytes @ 0x20000000) -- CPU_ReadMem(4 bytes @ 0xE0001000) (0004ms, 0475ms total)
T2048 2080:358 JLINK_IsHalted() -- CPU_ReadMem(2 bytes @ 0x20000000)  returns TRUE (0007ms, 0482ms total)
T2048 2080:365 JLINK_ReadReg(R15 (PC))  returns 0x20000000 (0000ms, 0475ms total)
T2048 2080:365 JLINK_ClrBPEx(BPHandle = 0x0000000F)  returns 0x00 (0000ms, 0475ms total)
T2048 2080:365 JLINK_ReadReg(R0)  returns 0x00000000 (0000ms, 0475ms total)
T2048 2080:366 JLINK_WriteMem(0x20000234, 0x01CC Bytes, ...) - Data: 20 88 00 20 C1 63 02 00 C9 63 02 00 CB 63 02 00 ... -- CPU_WriteMem(460 bytes @ 0x20000234)  returns 0x1CC (0007ms, 0482ms total)
T2048 2080:373 JLINK_WriteMem(0x20000400, 0x0400 Bytes, ...) - Data: 00 00 00 00 00 00 00 00 00 00 00 00 00 00 00 00 ... -- CPU_WriteMem(1024 bytes @ 0x20000400)  returns 0x400 (0014ms, 0496ms total)
T2048 2080:387 JLINK_WriteMem(0x20000800, 0x0400 Bytes, ...) - Data: 03 0F 27 D1 04 A9 40 46 01 F0 D4 FF 4F F0 A0 41 ... -- CPU_WriteMem(1024 bytes @ 0x20000800)  returns 0x400 (0014ms, 0510ms total)
T2048 2080:401 JLINK_WriteMem(0x20000C00, 0x0400 Bytes, ...) - Data: 1F 4A 15 60 1F 48 04 68 00 2C FC D0 15 24 C1 F8 ... -- CPU_WriteMem(1024 bytes @ 0x20000C00)  returns 0x400 (0015ms, 0525ms total)
T2048 2080:416 JLINK_WriteMem(0x20001000, 0x0234 Bytes, ...) - Data: D3 F8 80 51 07 4C 25 40 15 60 C3 F8 80 41 D3 F8 ... -- CPU_WriteMem(564 bytes @ 0x20001000)  returns 0x234 (0008ms, 0533ms total)
T2048 2080:424 JLINK_WriteReg(R0, 0x00026000)  returns 0x00 (0000ms, 0533ms total)
T2048 2080:424 JLINK_WriteReg(R1, 0x00001000)  returns 0x00 (0000ms, 0533ms total)
T2048 2080:424 JLINK_WriteReg(R2, 0x20000234)  returns 0x00 (0000ms, 0533ms total)
T2048 2080:424 JLINK_WriteReg(R3, 0x00000000)  returns 0x00 (0000ms, 0533ms total)
T2048 2080:424 JLINK_WriteReg(R4, 0x00000000)  returns 0x00 (0000ms, 0533ms total)
T2048 2080:424 JLINK_WriteReg(R5, 0x00000000)  returns 0x00 (0000ms, 0533ms total)
T2048 2080:424 JLINK_WriteReg(R6, 0x00000000)  returns 0x00 (0000ms, 0533ms total)
T2048 2080:424 JLINK_WriteReg(R7, 0x00000000)  returns 0x00 (0000ms, 0533ms total)
T2048 2080:424 JLINK_WriteReg(R8, 0x00000000)  returns 0x00 (0000ms, 0533ms total)
T2048 2080:424 JLINK_WriteReg(R9, 0x20000230)  returns 0x00 (0000ms, 0533ms total)
T2048 2080:424 JLINK_WriteReg(R10, 0x00000000)  returns 0x00 (0000ms, 0533ms total)
T2048 2080:424 JLINK_WriteReg(R11, 0x00000000)  returns 0x00 (0000ms, 0533ms total)
T2048 2080:425 JLINK_WriteReg(R12, 0x00000000)  returns 0x00 (0000ms, 0534ms total)
T2048 2080:425 JLINK_WriteReg(R13 (SP), 0x20002000)  returns 0x00 (0000ms, 0534ms total)
T2048 2080:425 JLINK_WriteReg(R14, 0x20000001)  returns 0x00 (0000ms, 0534ms total)
T2048 2080:425 JLINK_WriteReg(R15 (PC), 0x20000156)  returns 0x00 (0000ms, 0534ms total)
T2048 2080:425 JLINK_WriteReg(XPSR, 0x01000000)  returns 0x00 (0000ms, 0534ms total)
T2048 2080:425 JLINK_WriteReg(MSP, 0x20002000)  returns 0x00 (0000ms, 0534ms total)
T2048 2080:425 JLINK_WriteReg(PSP, 0x20002000)  returns 0x00 (0000ms, 0534ms total)
T2048 2080:425 JLINK_WriteReg(CFBP, 0x00000000)  returns 0x00 (0000ms, 0534ms total)
T2048 2080:425 JLINK_SetBPEx(Addr = 0x20000000, Type = 0xFFFFFFF2)  returns 0x00000010 (0000ms, 0534ms total)
T2048 2080:425 JLINK_Go() -- CPU_ReadMem(4 bytes @ 0xE0001000) (0004ms, 0538ms total)
T2048 2080:429 JLINK_IsHalted()  returns FALSE (0000ms, 0538ms total)
T2048 2080:435 JLINK_IsHalted()  returns FALSE (0000ms, 0538ms total)
T2048 2080:438 JLINK_IsHalted()  returns FALSE (0001ms, 0539ms total)
T2048 2080:441 JLINK_IsHalted()  returns FALSE (0000ms, 0538ms total)
T2048 2080:443 JLINK_IsHalted()  returns FALSE (0000ms, 0538ms total)
T2048 2080:446 JLINK_IsHalted()  returns FALSE (0000ms, 0538ms total)
T2048 2080:448 JLINK_IsHalted()  returns FALSE (0000ms, 0538ms total)
T2048 2080:450 JLINK_IsHalted()  returns FALSE (0000ms, 0538ms total)
T2048 2080:452 JLINK_IsHalted()  returns FALSE (0000ms, 0538ms total)
T2048 2080:454 JLINK_IsHalted()  returns FALSE (0000ms, 0538ms total)
T2048 2080:456 JLINK_IsHalted()  returns FALSE (0000ms, 0538ms total)
T2048 2080:459 JLINK_IsHalted()  returns FALSE (0000ms, 0538ms total)
T2048 2080:461 JLINK_IsHalted()  returns FALSE (0000ms, 0538ms total)
T2048 2080:463 JLINK_IsHalted()  returns FALSE (0000ms, 0538ms total)
T2048 2080:465 JLINK_IsHalted()  returns FALSE (0000ms, 0538ms total)
T2048 2080:467 JLINK_IsHalted()  returns FALSE (0000ms, 0538ms total)
T2048 2080:470 JLINK_IsHalted()  returns FALSE (0000ms, 0538ms total)
T2048 2080:472 JLINK_IsHalted()  returns FALSE (0000ms, 0538ms total)
T2048 2080:474 JLINK_IsHalted()  returns FALSE (0000ms, 0538ms total)
T2048 2080:476 JLINK_IsHalted()  returns FALSE (0000ms, 0538ms total)
T2048 2080:478 JLINK_IsHalted()  returns FALSE (0000ms, 0538ms total)
T2048 2080:480 JLINK_IsHalted()  returns FALSE (0000ms, 0538ms total)
T2048 2080:482 JLINK_IsHalted()  returns FALSE (0000ms, 0538ms total)
T2048 2080:484 JLINK_IsHalted()  returns FALSE (0000ms, 0538ms total)
T2048 2080:486 JLINK_IsHalted()  returns FALSE (0000ms, 0538ms total)
T2048 2080:488 JLINK_IsHalted()  returns FALSE (0001ms, 0539ms total)
T2048 2080:492 JLINK_IsHalted()  returns FALSE (0000ms, 0538ms total)
T2048 2080:494 JLINK_IsHalted()  returns FALSE (0000ms, 0538ms total)
T2048 2080:496 JLINK_IsHalted()  returns FALSE (0000ms, 0538ms total)
T2048 2080:498 JLINK_IsHalted() -- CPU_ReadMem(2 bytes @ 0x20000000)  returns TRUE (0007ms, 0545ms total)
T2048 2080:505 JLINK_ReadReg(R15 (PC))  returns 0x20000000 (0000ms, 0538ms total)
T2048 2080:505 JLINK_ClrBPEx(BPHandle = 0x00000010)  returns 0x00 (0000ms, 0538ms total)
T2048 2080:505 JLINK_ReadReg(R0)  returns 0x00000000 (0000ms, 0538ms total)
T2048 2080:505 JLINK_WriteMem(0x20000234, 0x01CC Bytes, ...) - Data: 06 28 07 D2 05 49 22 68 01 EB 80 01 40 1C 0A 60 ... -- CPU_WriteMem(460 bytes @ 0x20000234)  returns 0x1CC (0007ms, 0545ms total)
T2048 2080:512 JLINK_WriteMem(0x20000400, 0x0400 Bytes, ...) - Data: 00 F0 4C BA 20 88 21 1D 75 DF 0C E0 00 21 00 91 ... -- CPU_WriteMem(1024 bytes @ 0x20000400)  returns 0x400 (0015ms, 0560ms total)
T2048 2080:527 JLINK_WriteMem(0x20000800, 0x0400 Bytes, ...) - Data: 5B 89 AD F8 04 30 52 1C 0B 7A 93 42 E4 D8 01 88 ... -- CPU_WriteMem(1024 bytes @ 0x20000800)  returns 0x400 (0014ms, 0574ms total)
